T0CE0 338:316 SEGGER J-Link V6.30h Log File (0001ms, 3811ms total)
T0CE0 338:316 DLL Compiled: Mar 16 2018 18:02:51 (0001ms, 3811ms total)
T0CE0 338:316 Logging started @ 2019-03-07 14:19 (0001ms, 3811ms total)
T0CE0 338:317 JLINK_SetWarnOutHandler(...) (0000ms, 3811ms total)
T0CE0 338:317 JLINK_OpenEx(...)
Firmware: J-Link V9 compiled Apr 20 2018 16:47:26
Hardware: V9.40
S/N: 59400616
Feature(s): RDI, FlashBP, FlashDL, JFlash, GDB
TELNET listener socket opened on port 19021WEBSRV 
Starting webserver (0160ms, 3971ms total)
T0CE0 338:317 WEBSRV Webserver running on local port 19080 (0161ms, 3972ms total)
T0CE0 338:317   returns O.K. (0161ms, 3972ms total)
T0CE0 338:478 JLINK_GetEmuCaps()  returns 0xB9FF7BBF (0000ms, 3972ms total)
T0CE0 338:479 JLINK_TIF_GetAvailable(...) (0001ms, 3973ms total)
T0CE0 338:480 JLINK_SetErrorOutHandler(...) (0000ms, 3973ms total)
T0CE0 338:480 JLINK_ExecCommand("ProjectFile = "E:\zjk\LK02_cube\lk02\MDK-ARM\JLinkSettings.ini"", ...).   returns 0x00 (0002ms, 3975ms total)
T0CE0 338:482 JLINK_ExecCommand("Device = STM32F103C8", ...). Device "STM32F103C8" selected.  returns 0x00 (0002ms, 3977ms total)
T0CE0 338:484 JLINK_ExecCommand("DisableConnectionTimeout", ...).   returns 0x01 (0000ms, 3977ms total)
T0CE0 338:484 JLINK_GetHardwareVersion()  returns 0x16F30 (0000ms, 3977ms total)
T0CE0 338:484 JLINK_GetDLLVersion()  returns 63008 (0000ms, 3977ms total)
T0CE0 338:484 JLINK_GetFirmwareString(...) (0000ms, 3977ms total)
T0CE0 338:484 JLINK_GetDLLVersion()  returns 63008 (0000ms, 3977ms total)
T0CE0 338:484 JLINK_GetCompileDateTime() (0000ms, 3977ms total)
T0CE0 338:484 JLINK_GetFirmwareString(...) (0000ms, 3977ms total)
T0CE0 338:484 JLINK_GetHardwareVersion()  returns 0x16F30 (0000ms, 3977ms total)
T0CE0 338:484 JLINK_TIF_Select(JLINKARM_TIF_SWD)  returns 0x00 (0005ms, 3982ms total)
T0CE0 338:489 JLINK_SetSpeed(50000) (0001ms, 3983ms total)
T0CE0 338:490 JLINK_GetId() >0x10B TIF> >0x10F TIF> >0x10B TIF> >0x10F TIF> >0x10B TIF>Found SW-DP with ID 0x1BA01477 >0x0D TIF> >0x28 TIF> >0x0D TIF> >0x28 TIF>SWD speed too high. Reduced from 12000 kHz to 8100 kHz for stability >0x0D TIF> >0x28 TIF> >0x0D TIF> >0x28 TIF> >0x0D TIF> >0x21 TIF> >0x0D TIF> >0x28 TIF> >0x0D TIF> >0x28 TIF> >0x0D TIF> >0x28 TIF> >0x0D TIF> >0x21 TIF> >0x0D TIF> >0x21 TIF> >0x0D TIF> >0x28 TIF> >0x0D TIF> >0x21 TIF> >0x0D TIF> >0x21 TIF> >0x0D TIF> >0x28 TIF> >0x0D TIF>
 >0x21 TIF> >0x0D TIF> >0x21 TIF> >0x0D TIF> >0x28 TIF> >0x0D TIF> >0x21 TIF> >0x0D TIF> >0x21 TIF> >0x0D TIF> >0x28 TIF> >0x0D TIF> >0x21 TIF> >0x0D TIF> >0x21 TIF> >0x0D TIF> >0x28 TIF> >0x0D TIF> >0x21 TIF> >0x0D TIF> >0x21 TIF> >0x0D TIF> >0x28 TIF> >0x0D TIF> >0x21 TIF> >0x0D TIF> >0x21 TIF> >0x10B TIF>Found SW-DP with ID 0x1BA01477 >0x0D TIF> >0x28 TIF> >0x0D TIF> >0x28 TIF> >0x0D TIF> >0x28 TIF> >0x0D TIF> >0x28 TIF> >0x0D TIF> >0x21 TIF> >0x0D TIF> >0x28 TIF>
Scanning AP map to find all available APs >0x0D TIF> >0x28 TIF> >0x0D TIF> >0x21 TIF> >0x0D TIF> >0x21 TIF> >0x0D TIF> >0x28 TIF> >0x0D TIF> >0x21 TIF> >0x0D TIF> >0x21 TIF>AP[1]: Stopped AP scan as end of AP map has been reachedAP[0]: AHB-AP (IDR: 0x14770011)Iterating through AP map to find AHB-AP to use >0x42 TIF> >0x28 TIF> >0x0D TIF> >0x28 TIF> >0x0D TIF> >0x21 TIF> >0x0D TIF> >0x21 TIF> >0x42 TIF> >0x28 TIF> >0x0D TIF> >0x28 TIF> >0x0D TIF> >0x28 TIF> >0x0D TIF> >0x21 TIF> >0x0D TIF> >0x21 TIF>
AP[0]: Core foundAP[0]: AHB-AP ROM base: 0xE00FF000 >0x0D TIF> >0x28 TIF> >0x0D TIF> >0x28 TIF> >0x0D TIF> >0x28 TIF> >0x0D TIF> >0x21 TIF> >0x0D TIF> >0x21 TIF>CPUID register: 0x411FC231. Implementer code: 0x41 (ARM)Found Cortex-M3 r1p1, Little endian. -- CPU_ReadMem(4 bytes @ 0xE000EDF0) -- CPU_WriteMem(4 bytes @ 0xE000EDF0) -- CPU_ReadMem(4 bytes @ 0xE0002000)FPUnit: 6 code (BP) slots and 2 literal slots -- CPU_ReadMem(4 bytes @ 0xE000EDFC) -- CPU_WriteMem(4 bytes @ 0xE000EDFC)
 -- CPU_ReadMem(4 bytes @ 0xE0001000) -- CPU_WriteMem(4 bytes @ 0xE0001000) -- CPU_ReadMem(4 bytes @ 0xE000ED88) -- CPU_WriteMem(4 bytes @ 0xE000ED88) -- CPU_ReadMem(4 bytes @ 0xE000ED88) -- CPU_WriteMem(4 bytes @ 0xE000ED88)CoreSight components:ROMTbl[0] @ E00FF000 -- CPU_ReadMem(16 bytes @ 0xE00FF000) -- CPU_ReadMem(16 bytes @ 0xE000EFF0) -- CPU_ReadMem(16 bytes @ 0xE000EFE0)ROMTbl[0][0]: E000E000, CID: B105E00D, PID: 001BB000 SCS -- CPU_ReadMem(16 bytes @ 0xE0001FF0)
 -- CPU_ReadMem(16 bytes @ 0xE0001FE0)ROMTbl[0][1]: E0001000, CID: B105E00D, PID: 001BB002 DWT -- CPU_ReadMem(16 bytes @ 0xE0002FF0) -- CPU_ReadMem(16 bytes @ 0xE0002FE0)ROMTbl[0][2]: E0002000, CID: B105E00D, PID: 000BB003 FPB -- CPU_ReadMem(16 bytes @ 0xE0000FF0) -- CPU_ReadMem(16 bytes @ 0xE0000FE0)ROMTbl[0][3]: E0000000, CID: B105E00D, PID: 001BB001 ITM -- CPU_ReadMem(16 bytes @ 0xE00FF010) -- CPU_ReadMem(16 bytes @ 0xE0040FF0) -- CPU_ReadMem(16 bytes @ 0xE0040FE0)
ROMTbl[0][4]: E0040000, CID: B105900D, PID: 001BB923 TPIU-Lite >0x0D TIF> >0x21 TIF>  returns 0x1BA01477 (0417ms, 4400ms total)
T0CE0 338:908 JLINK_GetDLLVersion()  returns 63008 (0000ms, 4400ms total)
T0CE0 338:908 JLINK_CORE_GetFound()  returns 0x30000FF (0000ms, 4400ms total)
T0CE0 338:908 JLINK_GetDebugInfo(0x100 = JLINKARM_ROM_TABLE_ADDR_INDEX) -- Value=0xE00FF000  returns 0x00 (0000ms, 4400ms total)
T0CE0 338:908 JLINK_GetDebugInfo(0x100 = JLINKARM_ROM_TABLE_ADDR_INDEX) -- Value=0xE00FF000  returns 0x00 (0000ms, 4400ms total)
T0CE0 338:908 JLINK_GetDebugInfo(0x101 = JLINKARM_DEBUG_INFO_ETM_ADDR_INDEX) -- Value=0x00000000  returns 0x00 (0000ms, 4400ms total)
T0CE0 338:908 JLINK_ReadMemEx(0xE0041FF0, 0x0010 Bytes, ..., Flags = 0x02000004) -- CPU_ReadMem(16 bytes @ 0xE0041FF0) - Data: 00 00 00 00 00 00 00 00 00 00 00 00 00 00 00 00  returns 0x10 (0001ms, 4401ms total)
T0CE0 338:909 JLINK_GetDebugInfo(0x102 = JLINKARM_DEBUG_INFO_MTB_ADDR_INDEX) -- Value=0x00000000  returns 0x00 (0000ms, 4401ms total)
T0CE0 338:909 JLINK_GetDebugInfo(0x103 = JLINKARM_DEBUG_INFO_TPIU_ADDR_INDEX) -- Value=0xE0040000  returns 0x00 (0000ms, 4401ms total)
T0CE0 338:909 JLINK_GetDebugInfo(0x104 = JLINKARM_DEBUG_INFO_ITM_ADDR_INDEX) -- Value=0xE0000000  returns 0x00 (0000ms, 4401ms total)
T0CE0 338:909 JLINK_GetDebugInfo(0x105 = JLINKARM_DEBUG_INFO_DWT_ADDR_INDEX) -- Value=0xE0001000  returns 0x00 (0000ms, 4401ms total)
T0CE0 338:909 JLINK_GetDebugInfo(0x106 = JLINKARM_DEBUG_INFO_FPB_ADDR_INDEX) -- Value=0xE0002000  returns 0x00 (0000ms, 4401ms total)
T0CE0 338:909 JLINK_GetDebugInfo(0x107 = JLINKARM_DEBUG_INFO_NVIC_ADDR_INDEX) -- Value=0xE000E000  returns 0x00 (0001ms, 4402ms total)
T0CE0 338:910 JLINK_GetDebugInfo(0x10C = JLINKARM_DEBUG_INFO_DBG_ADDR_INDEX) -- Value=0xE000EDF0  returns 0x00 (0000ms, 4402ms total)
T0CE0 338:910 JLINK_GetDebugInfo(0x01 = Unknown) -- Value=0x00000000  returns 0x00 (0000ms, 4402ms total)
T0CE0 338:910 JLINK_ReadMemU32(0xE000ED00, 0x0001 Items, ...) -- CPU_ReadMem(4 bytes @ 0xE000ED00) - Data: 31 C2 1F 41  returns 0x01 (0001ms, 4403ms total)
T0CE0 338:911 JLINK_GetDebugInfo(0x10F = JLINKARM_DEBUG_INFO_HAS_CORTEX_M_SECURITY_EXT_INDEX) -- Value=0x00000000  returns 0x00 (0000ms, 4403ms total)
T0CE0 338:911 JLINK_SetResetType(JLINKARM_CM3_RESET_TYPE_NORMAL)  returns JLINKARM_CM3_RESET_TYPE_NORMAL (0000ms, 4403ms total)
T0CE0 338:911 JLINK_Reset() -- CPU is running -- CPU_WriteMem(4 bytes @ 0xE000EDF0) -- CPU is running -- CPU_WriteMem(4 bytes @ 0xE000EDFC)Reset: Halt core after reset via DEMCR.VC_CORERESET. >0x35 TIF>Reset: Reset device via AIRCR.SYSRESETREQ. -- CPU is running -- CPU_WriteMem(4 bytes @ 0xE000ED0C) >0x0D TIF> >0x28 TIF> -- CPU_ReadMem(4 bytes @ 0xE000EDF0) -- CPU_ReadMem(4 bytes @ 0xE000EDF0) -- CPU is running -- CPU_WriteMem(4 bytes @ 0xE000EDF0) -- CPU is running -- CPU_WriteMem(4 bytes @ 0xE000EDFC)
 -- CPU_ReadMem(4 bytes @ 0xE000EDF0) -- CPU_WriteMem(4 bytes @ 0xE0002000) -- CPU_ReadMem(4 bytes @ 0xE000EDFC) -- CPU_ReadMem(4 bytes @ 0xE0001000) (0080ms, 4483ms total)
T0CE0 338:991 JLINK_ReadReg(R15 (PC))  returns 0x08000198 (0000ms, 4483ms total)
T0CE0 338:991 JLINK_ReadReg(XPSR)  returns 0x01000000 (0000ms, 4483ms total)
T0CE0 338:991 JLINK_Halt()  returns 0x00 (0000ms, 4483ms total)
T0CE0 338:991 JLINK_ReadMemU32(0xE000EDF0, 0x0001 Items, ...) -- CPU_ReadMem(4 bytes @ 0xE000EDF0) - Data: 03 00 03 00  returns 0x01 (0002ms, 4485ms total)
T0CE0 338:993 JLINK_WriteU32(0xE000EDF0, 0xA05F0003) -- CPU_WriteMem(4 bytes @ 0xE000EDF0)  returns 0x00 (0001ms, 4486ms total)
T0CE0 338:994 JLINK_WriteU32(0xE000EDFC, 0x01000000) -- CPU_WriteMem(4 bytes @ 0xE000EDFC)  returns 0x00 (0001ms, 4487ms total)
T0CE0 338:996 JLINK_GetHWStatus(...)  returns 0x00 (0001ms, 4488ms total)
T0CE0 338:997 JLINK_GetNumBPUnits(Type = 0xFFFFFF00)  returns 0x06 (0000ms, 4488ms total)
T0CE0 338:997 JLINK_GetNumBPUnits(Type = 0xF0)  returns 0x2000 (0000ms, 4488ms total)
T0CE0 338:997 JLINK_GetNumWPUnits()  returns 0x04 (0000ms, 4488ms total)
T0CE0 338:997 JLINK_GetSpeed()  returns 0x1770 (0000ms, 4488ms total)
T0CE0 338:997 JLINK_ReadMemU32(0xE000E004, 0x0001 Items, ...) -- CPU_ReadMem(4 bytes @ 0xE000E004) - Data: 01 00 00 00  returns 0x01 (0001ms, 4489ms total)
T0CE0 338:998 JLINK_ReadMemU32(0xE000E004, 0x0001 Items, ...) -- CPU_ReadMem(4 bytes @ 0xE000E004) - Data: 01 00 00 00  returns 0x01 (0002ms, 4491ms total)
T0CE0 339:000 JLINK_WriteMemEx(0xE0001000, 0x001C Bytes, ..., Flags = 0x02000004) - Data: 01 00 00 00 00 00 00 00 00 00 00 00 00 00 00 00 ... -- CPU_WriteMem(28 bytes @ 0xE0001000)  returns 0x1C (0001ms, 4492ms total)
T0CE0 339:001 JLINK_ReadReg(R15 (PC))  returns 0x08000198 (0000ms, 4492ms total)
T0CE0 339:001 JLINK_ReadReg(XPSR)  returns 0x01000000 (0000ms, 4492ms total)
T0CE0 339:114 JLINK_SetResetType(JLINKARM_CM3_RESET_TYPE_NORMAL)  returns JLINKARM_CM3_RESET_TYPE_NORMAL (0000ms, 4492ms total)
T0CE0 339:114 JLINK_Reset() -- CPU_WriteMem(4 bytes @ 0xE000EDF0) -- CPU_WriteMem(4 bytes @ 0xE000EDFC)Reset: Halt core after reset via DEMCR.VC_CORERESET. >0x35 TIF>Reset: Reset device via AIRCR.SYSRESETREQ. -- CPU_WriteMem(4 bytes @ 0xE000ED0C) >0x0D TIF> >0x28 TIF> -- CPU_ReadMem(4 bytes @ 0xE000EDF0) -- CPU_ReadMem(4 bytes @ 0xE000EDF0) -- CPU_WriteMem(4 bytes @ 0xE000EDF0) -- CPU_WriteMem(4 bytes @ 0xE000EDFC) -- CPU_ReadMem(4 bytes @ 0xE000EDF0) -- CPU_WriteMem(4 bytes @ 0xE0002000)
 -- CPU_ReadMem(4 bytes @ 0xE000EDFC) -- CPU_ReadMem(4 bytes @ 0xE0001000) (0081ms, 4573ms total)
T0CE0 339:195 JLINK_ReadReg(R15 (PC))  returns 0x08000198 (0000ms, 4573ms total)
T0CE0 339:195 JLINK_ReadReg(XPSR)  returns 0x01000000 (0000ms, 4573ms total)
T0CE0 339:195 JLINK_ReadMemEx(0x08000198, 0x003C Bytes, ..., Flags = 0x02000000) -- CPU_ReadMem(128 bytes @ 0x08000180) -- Updating C cache (128 bytes @ 0x08000180) -- Read from C cache (60 bytes @ 0x08000198) - Data: 06 48 80 47 06 48 00 47 FE E7 FE E7 FE E7 FE E7 ...  returns 0x3C (0002ms, 4575ms total)
T0CE0 341:779 JLINK_ReadReg(R0)  returns 0x40010800 (0001ms, 4576ms total)
T0CE0 341:780 JLINK_ReadReg(R1)  returns 0x20000094 (0000ms, 4576ms total)
T0CE0 341:780 JLINK_ReadReg(R2)  returns 0x00000001 (0000ms, 4576ms total)
T0CE0 341:780 JLINK_ReadReg(R3)  returns 0x00000002 (0000ms, 4576ms total)
T0CE0 341:780 JLINK_ReadReg(R4)  returns 0x40010800 (0000ms, 4576ms total)
T0CE0 341:780 JLINK_ReadReg(R5)  returns 0x200000DC (0000ms, 4576ms total)
T0CE0 341:780 JLINK_ReadReg(R6)  returns 0x00000000 (0000ms, 4576ms total)
T0CE0 341:780 JLINK_ReadReg(R7)  returns 0x00001000 (0000ms, 4576ms total)
T0CE0 341:780 JLINK_ReadReg(R8)  returns 0x40010800 (0000ms, 4576ms total)
T0CE0 341:780 JLINK_ReadReg(R9)  returns 0x00000000 (0000ms, 4576ms total)
T0CE0 341:780 JLINK_ReadReg(R10)  returns 0x00000000 (0000ms, 4576ms total)
T0CE0 341:780 JLINK_ReadReg(R11)  returns 0x00000000 (0000ms, 4576ms total)
T0CE0 341:780 JLINK_ReadReg(R12)  returns 0x4CF3CDC7 (0000ms, 4576ms total)
T0CE0 341:780 JLINK_ReadReg(R13 (SP))  returns 0x20003970 (0000ms, 4576ms total)
T0CE0 341:780 JLINK_ReadReg(R14)  returns 0xFFFFFFFF (0000ms, 4576ms total)
T0CE0 341:780 JLINK_ReadReg(R15 (PC))  returns 0x08000198 (0000ms, 4576ms total)
T0CE0 341:780 JLINK_ReadReg(XPSR)  returns 0x01000000 (0000ms, 4576ms total)
T0CE0 341:780 JLINK_ReadReg(MSP)  returns 0x20003970 (0000ms, 4576ms total)
T0CE0 341:780 JLINK_ReadReg(PSP)  returns 0x20001370 (0000ms, 4576ms total)
T0CE0 341:780 JLINK_ReadReg(CFBP)  returns 0x00000000 (0000ms, 4576ms total)
T1FCC 342:004 JLINK_ReadMemEx(0x08000198, 0x0002 Bytes, ..., Flags = 0x02000000) -- Read from C cache (2 bytes @ 0x08000198) - Data: 06 48  returns 0x02 (0000ms, 4576ms total)
T1FCC 342:004 JLINK_SetBPEx(Addr = 0x0800428C, Type = 0xFFFFFFF2)  returns 0x00000001 (0000ms, 4576ms total)
T1FCC 342:004 JLINK_SetBPEx(Addr = 0x08002870, Type = 0xFFFFFFF2)  returns 0x00000002 (0000ms, 4576ms total)
T1FCC 342:004 JLINK_Go() -- CPU_WriteMem(4 bytes @ 0xE0002000) -- CPU_WriteMem(4 bytes @ 0xE0002000) -- CPU_ReadMem(4 bytes @ 0xE0001000) -- CPU_WriteMem(4 bytes @ 0xE0002008) -- CPU_WriteMem(4 bytes @ 0xE000200C) -- CPU_WriteMem(4 bytes @ 0xE0002010) -- CPU_WriteMem(4 bytes @ 0xE0002014) -- CPU_WriteMem(4 bytes @ 0xE0002018) -- CPU_WriteMem(4 bytes @ 0xE000201C) -- CPU_WriteMem(4 bytes @ 0xE0001004) (0008ms, 4584ms total)
T1FCC 342:114 JLINK_IsHalted()  returns TRUE (0004ms, 4588ms total)
T1FCC 342:118 JLINK_Halt()  returns 0x00 (0000ms, 4584ms total)
T1FCC 342:118 JLINK_IsHalted()  returns TRUE (0000ms, 4584ms total)
T1FCC 342:118 JLINK_IsHalted()  returns TRUE (0000ms, 4584ms total)
T1FCC 342:118 JLINK_IsHalted()  returns TRUE (0000ms, 4584ms total)
T1FCC 342:118 JLINK_ReadReg(R15 (PC))  returns 0x0800428C (0000ms, 4584ms total)
T1FCC 342:118 JLINK_ReadReg(XPSR)  returns 0x61000000 (0000ms, 4584ms total)
T1FCC 342:118 JLINK_ClrBPEx(BPHandle = 0x00000001)  returns 0x00 (0000ms, 4584ms total)
T1FCC 342:118 JLINK_ClrBPEx(BPHandle = 0x00000002)  returns 0x00 (0000ms, 4584ms total)
T1FCC 342:118 JLINK_ReadMemU32(0xE000ED30, 0x0001 Items, ...) -- CPU_ReadMem(4 bytes @ 0xE000ED30) - Data: 02 00 00 00  returns 0x01 (0001ms, 4585ms total)
T1FCC 342:119 JLINK_ReadMemU32(0xE0001028, 0x0001 Items, ...) -- CPU_ReadMem(4 bytes @ 0xE0001028) - Data: 00 00 00 00  returns 0x01 (0001ms, 4586ms total)
T1FCC 342:120 JLINK_ReadMemU32(0xE0001038, 0x0001 Items, ...) -- CPU_ReadMem(4 bytes @ 0xE0001038) - Data: 00 02 00 00  returns 0x01 (0002ms, 4588ms total)
T1FCC 342:122 JLINK_ReadMemU32(0xE0001048, 0x0001 Items, ...) -- CPU_ReadMem(4 bytes @ 0xE0001048) - Data: 00 00 00 00  returns 0x01 (0001ms, 4589ms total)
T1FCC 342:123 JLINK_ReadMemU32(0xE0001058, 0x0001 Items, ...) -- CPU_ReadMem(4 bytes @ 0xE0001058) - Data: 00 00 00 00  returns 0x01 (0002ms, 4591ms total)
T1FCC 342:125 JLINK_ReadReg(R0)  returns 0x0800428D (0000ms, 4591ms total)
T1FCC 342:125 JLINK_ReadReg(R1)  returns 0x20003970 (0000ms, 4591ms total)
T1FCC 342:125 JLINK_ReadReg(R2)  returns 0x00000000 (0000ms, 4591ms total)
T1FCC 342:125 JLINK_ReadReg(R3)  returns 0x08003AD9 (0000ms, 4591ms total)
T1FCC 342:125 JLINK_ReadReg(R4)  returns 0x0800629C (0000ms, 4591ms total)
T1FCC 342:125 JLINK_ReadReg(R5)  returns 0x0800629C (0000ms, 4591ms total)
T1FCC 342:125 JLINK_ReadReg(R6)  returns 0x00000000 (0000ms, 4591ms total)
T1FCC 342:125 JLINK_ReadReg(R7)  returns 0x00001000 (0000ms, 4591ms total)
T1FCC 342:125 JLINK_ReadReg(R8)  returns 0x40010800 (0000ms, 4591ms total)
T1FCC 342:125 JLINK_ReadReg(R9)  returns 0x00000000 (0000ms, 4591ms total)
T1FCC 342:125 JLINK_ReadReg(R10)  returns 0x00000000 (0000ms, 4591ms total)
T1FCC 342:125 JLINK_ReadReg(R11)  returns 0x00000000 (0000ms, 4591ms total)
T1FCC 342:125 JLINK_ReadReg(R12)  returns 0x4CF3CDC7 (0000ms, 4591ms total)
T1FCC 342:125 JLINK_ReadReg(R13 (SP))  returns 0x20003970 (0000ms, 4591ms total)
T1FCC 342:125 JLINK_ReadReg(R14)  returns 0x08000759 (0000ms, 4591ms total)
T1FCC 342:125 JLINK_ReadReg(R15 (PC))  returns 0x0800428C (0000ms, 4591ms total)
T1FCC 342:125 JLINK_ReadReg(XPSR)  returns 0x61000000 (0001ms, 4592ms total)
T1FCC 342:126 JLINK_ReadReg(MSP)  returns 0x20003970 (0000ms, 4592ms total)
T1FCC 342:126 JLINK_ReadReg(PSP)  returns 0x20001370 (0000ms, 4592ms total)
T1FCC 342:126 JLINK_ReadReg(CFBP)  returns 0x00000000 (0000ms, 4592ms total)
T1FCC 343:735 JLINK_ReadMemEx(0x0800428C, 0x0002 Bytes, ..., Flags = 0x02000000) -- CPU_ReadMem(64 bytes @ 0x08004280) -- Updating C cache (64 bytes @ 0x08004280) -- Read from C cache (2 bytes @ 0x0800428C) - Data: FD F7  returns 0x02 (0002ms, 4594ms total)
T1FCC 343:737 JLINK_SetBPEx(Addr = 0x08002870, Type = 0xFFFFFFF2)  returns 0x00000003 (0000ms, 4594ms total)
T1FCC 343:737 JLINK_Go() -- CPU_WriteMem(4 bytes @ 0xE0002000) -- CPU_ReadMem(4 bytes @ 0xE0001000) -- CPU_WriteMem(4 bytes @ 0xE0002008) -- CPU_WriteMem(4 bytes @ 0xE000200C) (0007ms, 4601ms total)
T1FCC 343:844 JLINK_IsHalted()  returns FALSE (0000ms, 4601ms total)
T1FCC 343:945 JLINK_IsHalted()  returns FALSE (0000ms, 4601ms total)
T1FCC 344:047 JLINK_IsHalted()  returns FALSE (0001ms, 4602ms total)
T1FCC 344:149 JLINK_IsHalted()  returns FALSE (0000ms, 4601ms total)
T1FCC 344:250 JLINK_IsHalted()  returns FALSE (0001ms, 4602ms total)
T1FCC 344:353 JLINK_ReadMemU32(0xE0001004, 0x0001 Items, ...) -- CPU_ReadMem(4 bytes @ 0xE0001004) - Data: AF 84 52 02  returns 0x01 (0001ms, 4602ms total)
T1FCC 344:371 JLINK_IsHalted()  returns FALSE (0001ms, 4603ms total)
T1FCC 344:473 JLINK_IsHalted()  returns FALSE (0001ms, 4603ms total)
T1FCC 344:575 JLINK_IsHalted()  returns FALSE (0000ms, 4602ms total)
T1FCC 344:676 JLINK_IsHalted()  returns FALSE (0001ms, 4603ms total)
T1FCC 344:778 JLINK_IsHalted()  returns FALSE (0001ms, 4603ms total)
T1FCC 344:879 JLINK_ReadMemU32(0xE0001004, 0x0001 Items, ...) - Data: AF 84 52 02  returns 0x01 (0000ms, 4602ms total)
T1FCC 345:117 JLINK_IsHalted()  returns FALSE (0001ms, 4603ms total)
T1FCC 345:219 JLINK_IsHalted()  returns FALSE (0000ms, 4602ms total)
T1FCC 345:320 JLINK_IsHalted()  returns FALSE (0001ms, 4603ms total)
T1FCC 345:422 JLINK_ReadMemU32(0xE0001004, 0x0001 Items, ...) - Data: AF 84 52 02  returns 0x01 (0000ms, 4602ms total)
T1FCC 345:440 JLINK_IsHalted()  returns FALSE (0001ms, 4603ms total)
T1FCC 345:543 JLINK_IsHalted()  returns FALSE (0001ms, 4603ms total)
T1FCC 345:644 JLINK_IsHalted()  returns FALSE (0000ms, 4602ms total)
T1FCC 345:745 JLINK_IsHalted()  returns FALSE (0001ms, 4603ms total)
T1FCC 345:846 JLINK_IsHalted()  returns FALSE (0000ms, 4602ms total)
T1FCC 345:948 JLINK_ReadMemU32(0xE0001004, 0x0001 Items, ...) - Data: AF 84 52 02  returns 0x01 (0000ms, 4602ms total)
T1FCC 345:962 JLINK_IsHalted()  returns FALSE (0001ms, 4603ms total)
T1FCC 346:064 JLINK_IsHalted()  returns FALSE (0000ms, 4602ms total)
T1FCC 346:165 JLINK_IsHalted()  returns FALSE (0000ms, 4602ms total)
T1FCC 346:267 JLINK_IsHalted()  returns FALSE (0001ms, 4603ms total)
T1FCC 346:369 JLINK_IsHalted()  returns FALSE (0000ms, 4602ms total)
T1FCC 346:470 JLINK_ReadMemU32(0xE0001004, 0x0001 Items, ...) - Data: AF 84 52 02  returns 0x01 (0000ms, 4602ms total)
T1FCC 346:486 JLINK_IsHalted()  returns FALSE (0001ms, 4603ms total)
T1FCC 346:587 JLINK_IsHalted()  returns FALSE (0001ms, 4603ms total)
T1FCC 346:689 JLINK_IsHalted()  returns FALSE (0001ms, 4603ms total)
T1FCC 346:791 JLINK_IsHalted()  returns FALSE (0001ms, 4603ms total)
T1FCC 346:893 JLINK_IsHalted()  returns FALSE (0001ms, 4603ms total)
T1FCC 346:996 JLINK_ReadMemU32(0xE0001004, 0x0001 Items, ...) - Data: AF 84 52 02  returns 0x01 (0000ms, 4602ms total)
T1FCC 347:012 JLINK_IsHalted()  returns FALSE (0001ms, 4603ms total)
T1FCC 347:113 JLINK_IsHalted()  returns FALSE (0001ms, 4603ms total)
T1FCC 347:214 JLINK_IsHalted()  returns FALSE (0001ms, 4603ms total)
T1FCC 347:315 JLINK_IsHalted()  returns FALSE (0000ms, 4602ms total)
T1FCC 347:417 JLINK_IsHalted()  returns FALSE (0000ms, 4602ms total)
T1FCC 347:518 JLINK_ReadMemU32(0xE0001004, 0x0001 Items, ...) - Data: AF 84 52 02  returns 0x01 (0000ms, 4602ms total)
T1FCC 347:537 JLINK_IsHalted()  returns FALSE (0001ms, 4603ms total)
T1FCC 347:638 JLINK_IsHalted()  returns FALSE (0001ms, 4603ms total)
T1FCC 347:741 JLINK_IsHalted()  returns FALSE (0000ms, 4602ms total)
T1FCC 347:842 JLINK_IsHalted()  returns FALSE (0000ms, 4602ms total)
T1FCC 347:943 JLINK_IsHalted()  returns FALSE (0000ms, 4602ms total)
T1FCC 348:044 JLINK_ReadMemU32(0xE0001004, 0x0001 Items, ...) - Data: AF 84 52 02  returns 0x01 (0000ms, 4602ms total)
T1FCC 348:065 JLINK_IsHalted()  returns FALSE (0001ms, 4603ms total)
T1FCC 348:168 JLINK_IsHalted()  returns FALSE (0001ms, 4603ms total)
T1FCC 348:269 JLINK_IsHalted()  returns FALSE (0001ms, 4603ms total)
T1FCC 348:371 JLINK_IsHalted()  returns FALSE (0001ms, 4603ms total)
T1FCC 348:473 JLINK_IsHalted()  returns FALSE (0001ms, 4603ms total)
T1FCC 348:576 JLINK_ReadMemU32(0xE0001004, 0x0001 Items, ...) - Data: AF 84 52 02  returns 0x01 (0000ms, 4602ms total)
T1FCC 348:594 JLINK_IsHalted()  returns FALSE (0002ms, 4604ms total)
T1FCC 348:696 JLINK_IsHalted()  returns FALSE (0001ms, 4603ms total)
T1FCC 348:797 JLINK_Halt()  returns 0x00 (0003ms, 4605ms total)
T1FCC 348:800 JLINK_IsHalted()  returns TRUE (0000ms, 4605ms total)
T1FCC 348:800 JLINK_IsHalted()  returns TRUE (0000ms, 4605ms total)
T1FCC 348:800 JLINK_IsHalted()  returns TRUE (0000ms, 4605ms total)
T1FCC 348:800 JLINK_ReadReg(R15 (PC))  returns 0x08004CEE (0000ms, 4605ms total)
T1FCC 348:800 JLINK_ReadReg(XPSR)  returns 0x21000000 (0000ms, 4605ms total)
T1FCC 348:800 JLINK_ClrBPEx(BPHandle = 0x00000003)  returns 0x00 (0000ms, 4605ms total)
T1FCC 348:800 JLINK_ReadMemU32(0xE000ED30, 0x0001 Items, ...) -- CPU_ReadMem(4 bytes @ 0xE000ED30) - Data: 01 00 00 00  returns 0x01 (0002ms, 4607ms total)
T1FCC 348:802 JLINK_ReadMemU32(0xE0001028, 0x0001 Items, ...) -- CPU_ReadMem(4 bytes @ 0xE0001028) - Data: 00 00 00 00  returns 0x01 (0001ms, 4608ms total)
T1FCC 348:803 JLINK_ReadMemU32(0xE0001038, 0x0001 Items, ...) -- CPU_ReadMem(4 bytes @ 0xE0001038) - Data: 00 02 00 00  returns 0x01 (0002ms, 4610ms total)
T1FCC 348:805 JLINK_ReadMemU32(0xE0001048, 0x0001 Items, ...) -- CPU_ReadMem(4 bytes @ 0xE0001048) - Data: 00 00 00 00  returns 0x01 (0001ms, 4611ms total)
T1FCC 348:806 JLINK_ReadMemU32(0xE0001058, 0x0001 Items, ...) -- CPU_ReadMem(4 bytes @ 0xE0001058) - Data: 00 00 00 00  returns 0x01 (0001ms, 4612ms total)
T1FCC 348:807 JLINK_ReadReg(R0)  returns 0x000000E6 (0000ms, 4612ms total)
T1FCC 348:808 JLINK_ReadReg(R1)  returns 0x40010C00 (0000ms, 4612ms total)
T1FCC 348:808 JLINK_ReadReg(R2)  returns 0x00000001 (0000ms, 4612ms total)
T1FCC 348:808 JLINK_ReadReg(R3)  returns 0x20000301 (0000ms, 4612ms total)
T1FCC 348:808 JLINK_ReadReg(R4)  returns 0x20002BD8 (0000ms, 4612ms total)
T1FCC 348:808 JLINK_ReadReg(R5)  returns 0x200000DC (0000ms, 4612ms total)
T1FCC 348:808 JLINK_ReadReg(R6)  returns 0x00000000 (0000ms, 4612ms total)
T1FCC 348:808 JLINK_ReadReg(R7)  returns 0x00001000 (0000ms, 4612ms total)
T1FCC 348:808 JLINK_ReadReg(R8)  returns 0x40010800 (0000ms, 4612ms total)
T1FCC 348:808 JLINK_ReadReg(R9)  returns 0x00000000 (0000ms, 4612ms total)
T1FCC 348:808 JLINK_ReadReg(R10)  returns 0x00000000 (0000ms, 4612ms total)
T1FCC 348:808 JLINK_ReadReg(R11)  returns 0x00000000 (0000ms, 4612ms total)
T1FCC 348:808 JLINK_ReadReg(R12)  returns 0x4CF91400 (0000ms, 4612ms total)
T1FCC 348:808 JLINK_ReadReg(R13 (SP))  returns 0x20001390 (0000ms, 4612ms total)
T1FCC 348:808 JLINK_ReadReg(R14)  returns 0x080009AD (0000ms, 4612ms total)
T1FCC 348:808 JLINK_ReadReg(R15 (PC))  returns 0x08004CEE (0000ms, 4612ms total)
T1FCC 348:808 JLINK_ReadReg(XPSR)  returns 0x21000000 (0000ms, 4612ms total)
T1FCC 348:808 JLINK_ReadReg(MSP)  returns 0x20003950 (0000ms, 4612ms total)
T1FCC 348:808 JLINK_ReadReg(PSP)  returns 0x20001390 (0000ms, 4612ms total)
T1FCC 348:808 JLINK_ReadReg(CFBP)  returns 0x02000000 (0000ms, 4612ms total)
T0CE0 348:811 JLINK_ReadMemEx(0x00000000, 0x0004 Bytes, ..., Flags = 0x02000000) -- CPU_ReadMem(4 bytes @ 0x00000004) -- CPU_ReadMem(64 bytes @ 0x08000000) -- Updating C cache (64 bytes @ 0x08000000) -- Read from C cache (4 bytes @ 0x08000000) - Data: 70 39 00 20  returns 0x04 (0003ms, 4615ms total)
T0CE0 348:834 JLINK_ReadMemEx(0x08004CEE, 0x0002 Bytes, ..., Flags = 0x02000000) -- CPU_ReadMem(64 bytes @ 0x08004CC0) -- Updating C cache (64 bytes @ 0x08004CC0) -- Read from C cache (2 bytes @ 0x08004CEE) - Data: FD D2  returns 0x02 (0001ms, 4616ms total)
T0CE0 348:835 JLINK_ReadMemEx(0x08004CF0, 0x003C Bytes, ..., Flags = 0x02000000) -- CPU_ReadMem(64 bytes @ 0x08004D00) -- Updating C cache (64 bytes @ 0x08004D00) -- Read from C cache (60 bytes @ 0x08004CF0) - Data: 70 47 00 00 70 B5 01 22 08 4D D4 02 21 46 28 46 ...  returns 0x3C (0002ms, 4618ms total)
T1FCC 360:675 JLINK_ReadMemEx(0x08004CEE, 0x0002 Bytes, ..., Flags = 0x02000000) -- Read from C cache (2 bytes @ 0x08004CEE) - Data: FD D2  returns 0x02 (0000ms, 4618ms total)
T1FCC 360:675 JLINK_SetBPEx(Addr = 0x08002870, Type = 0xFFFFFFF2)  returns 0x00000004 (0000ms, 4618ms total)
T1FCC 360:675 JLINK_SetBPEx(Addr = 0x080009C2, Type = 0xFFFFFFF2)  returns 0x00000005 (0000ms, 4618ms total)
T1FCC 360:675 JLINK_Go() -- CPU_WriteMem(4 bytes @ 0xE0002000) -- CPU_WriteMem(4 bytes @ 0xE0002000) -- CPU_ReadMem(4 bytes @ 0xE0001000) -- CPU_WriteMem(4 bytes @ 0xE000200C) (0008ms, 4626ms total)
T1FCC 360:784 JLINK_IsHalted()  returns TRUE (0003ms, 4629ms total)
T1FCC 360:788 JLINK_Halt()  returns 0x00 (0000ms, 4626ms total)
T1FCC 360:788 JLINK_IsHalted()  returns TRUE (0000ms, 4626ms total)
T1FCC 360:788 JLINK_IsHalted()  returns TRUE (0000ms, 4626ms total)
T1FCC 360:788 JLINK_IsHalted()  returns TRUE (0000ms, 4626ms total)
T1FCC 360:788 JLINK_ReadReg(R15 (PC))  returns 0x080009C2 (0000ms, 4626ms total)
T1FCC 360:788 JLINK_ReadReg(XPSR)  returns 0x81000000 (0000ms, 4626ms total)
T1FCC 360:788 JLINK_ClrBPEx(BPHandle = 0x00000004)  returns 0x00 (0000ms, 4626ms total)
T1FCC 360:788 JLINK_ClrBPEx(BPHandle = 0x00000005)  returns 0x00 (0000ms, 4626ms total)
T1FCC 360:788 JLINK_ReadMemU32(0xE000ED30, 0x0001 Items, ...) -- CPU_ReadMem(4 bytes @ 0xE000ED30) - Data: 02 00 00 00  returns 0x01 (0001ms, 4627ms total)
T1FCC 360:789 JLINK_ReadMemU32(0xE0001028, 0x0001 Items, ...) -- CPU_ReadMem(4 bytes @ 0xE0001028) - Data: 00 00 00 00  returns 0x01 (0001ms, 4628ms total)
T1FCC 360:790 JLINK_ReadMemU32(0xE0001038, 0x0001 Items, ...) -- CPU_ReadMem(4 bytes @ 0xE0001038) - Data: 00 02 00 00  returns 0x01 (0002ms, 4630ms total)
T1FCC 360:792 JLINK_ReadMemU32(0xE0001048, 0x0001 Items, ...) -- CPU_ReadMem(4 bytes @ 0xE0001048) - Data: 00 00 00 00  returns 0x01 (0001ms, 4631ms total)
T1FCC 360:793 JLINK_ReadMemU32(0xE0001058, 0x0001 Items, ...) -- CPU_ReadMem(4 bytes @ 0xE0001058) - Data: 00 00 00 00  returns 0x01 (0002ms, 4633ms total)
T1FCC 360:795 JLINK_ReadReg(R0)  returns 0x00000001 (0000ms, 4633ms total)
T1FCC 360:795 JLINK_ReadReg(R1)  returns 0x200000EC (0000ms, 4633ms total)
T1FCC 360:795 JLINK_ReadReg(R2)  returns 0x20002BDC (0000ms, 4633ms total)
T1FCC 360:795 JLINK_ReadReg(R3)  returns 0x200003B0 (0000ms, 4633ms total)
T1FCC 360:795 JLINK_ReadReg(R4)  returns 0x20002BD8 (0000ms, 4633ms total)
T1FCC 360:795 JLINK_ReadReg(R5)  returns 0x200000DC (0000ms, 4633ms total)
T1FCC 360:795 JLINK_ReadReg(R6)  returns 0x00000000 (0000ms, 4633ms total)
T1FCC 360:795 JLINK_ReadReg(R7)  returns 0x00001000 (0000ms, 4633ms total)
T1FCC 360:795 JLINK_ReadReg(R8)  returns 0x40010800 (0000ms, 4633ms total)
T1FCC 360:795 JLINK_ReadReg(R9)  returns 0x00000000 (0000ms, 4633ms total)
T1FCC 360:795 JLINK_ReadReg(R10)  returns 0x00000000 (0000ms, 4633ms total)
T1FCC 360:795 JLINK_ReadReg(R11)  returns 0x00000000 (0000ms, 4633ms total)
T1FCC 360:795 JLINK_ReadReg(R12)  returns 0x4CF91400 (0000ms, 4633ms total)
T1FCC 360:795 JLINK_ReadReg(R13 (SP))  returns 0x20001390 (0000ms, 4633ms total)
T1FCC 360:795 JLINK_ReadReg(R14)  returns 0x080041C3 (0000ms, 4633ms total)
T1FCC 360:795 JLINK_ReadReg(R15 (PC))  returns 0x080009C2 (0000ms, 4633ms total)
T1FCC 360:795 JLINK_ReadReg(XPSR)  returns 0x81000000 (0000ms, 4633ms total)
T1FCC 360:795 JLINK_ReadReg(MSP)  returns 0x20003950 (0000ms, 4633ms total)
T1FCC 360:795 JLINK_ReadReg(PSP)  returns 0x20001390 (0000ms, 4633ms total)
T1FCC 360:795 JLINK_ReadReg(CFBP)  returns 0x02000000 (0000ms, 4633ms total)
T1FCC 361:508 JLINK_ReadMemEx(0x080009C2, 0x0002 Bytes, ..., Flags = 0x02000000) -- CPU_ReadMem(64 bytes @ 0x080009C0) -- Updating C cache (64 bytes @ 0x080009C0) -- Read from C cache (2 bytes @ 0x080009C2) - Data: 08 70  returns 0x02 (0002ms, 4635ms total)
T1FCC 361:510 JLINK_Step() -- Read from C cache (2 bytes @ 0x080009C2) -- CPU_ReadMem(4 bytes @ 0xE000ED18) -- CPU_WriteMem(4 bytes @ 0xE000ED18) -- CPU_ReadMem(4 bytes @ 0xE000ED18) -- CPU_WriteMem(4 bytes @ 0xE000ED18) -- CPU_ReadMem(4 bytes @ 0xE0001004) -- CPU_WriteMem(1 bytes @ 0x200000EC) -- Simulated  returns 0x00 (0010ms, 4645ms total)
T1FCC 361:520 JLINK_ReadReg(R15 (PC))  returns 0x080009C4 (0000ms, 4645ms total)
T1FCC 361:520 JLINK_ReadReg(XPSR)  returns 0x81000000 (0000ms, 4645ms total)
T1FCC 361:520 JLINK_SetBPEx(Addr = 0x08002870, Type = 0xFFFFFFF2)  returns 0x00000006 (0000ms, 4645ms total)
T1FCC 361:520 JLINK_SetBPEx(Addr = 0x080009C2, Type = 0xFFFFFFF2)  returns 0x00000007 (0000ms, 4645ms total)
T1FCC 361:520 JLINK_Go() -- CPU_WriteMem(4 bytes @ 0xE0002000) -- CPU_WriteMem(4 bytes @ 0xE0002000) -- CPU_ReadMem(4 bytes @ 0xE0001000) -- CPU_WriteMem(4 bytes @ 0xE0001004) (0009ms, 4654ms total)
T1FCC 361:629 JLINK_IsHalted()  returns TRUE (0003ms, 4657ms total)
T1FCC 361:632 JLINK_Halt()  returns 0x00 (0000ms, 4654ms total)
T1FCC 361:632 JLINK_IsHalted()  returns TRUE (0000ms, 4654ms total)
T1FCC 361:632 JLINK_IsHalted()  returns TRUE (0000ms, 4654ms total)
T1FCC 361:632 JLINK_IsHalted()  returns TRUE (0000ms, 4654ms total)
T1FCC 361:632 JLINK_ReadReg(R15 (PC))  returns 0x080009C2 (0000ms, 4654ms total)
T1FCC 361:632 JLINK_ReadReg(XPSR)  returns 0x81000000 (0000ms, 4654ms total)
T1FCC 361:632 JLINK_ClrBPEx(BPHandle = 0x00000006)  returns 0x00 (0000ms, 4654ms total)
T1FCC 361:632 JLINK_ClrBPEx(BPHandle = 0x00000007)  returns 0x00 (0000ms, 4654ms total)
T1FCC 361:632 JLINK_ReadMemU32(0xE000ED30, 0x0001 Items, ...) -- CPU_ReadMem(4 bytes @ 0xE000ED30) - Data: 02 00 00 00  returns 0x01 (0001ms, 4655ms total)
T1FCC 361:633 JLINK_ReadMemU32(0xE0001028, 0x0001 Items, ...) -- CPU_ReadMem(4 bytes @ 0xE0001028) - Data: 00 00 00 00  returns 0x01 (0002ms, 4657ms total)
T1FCC 361:635 JLINK_ReadMemU32(0xE0001038, 0x0001 Items, ...) -- CPU_ReadMem(4 bytes @ 0xE0001038) - Data: 00 02 00 00  returns 0x01 (0001ms, 4658ms total)
T1FCC 361:636 JLINK_ReadMemU32(0xE0001048, 0x0001 Items, ...) -- CPU_ReadMem(4 bytes @ 0xE0001048) - Data: 00 00 00 00  returns 0x01 (0002ms, 4660ms total)
T1FCC 361:638 JLINK_ReadMemU32(0xE0001058, 0x0001 Items, ...) -- CPU_ReadMem(4 bytes @ 0xE0001058) - Data: 00 00 00 00  returns 0x01 (0001ms, 4661ms total)
T1FCC 361:639 JLINK_ReadReg(R0)  returns 0x00000001 (0000ms, 4661ms total)
T1FCC 361:639 JLINK_ReadReg(R1)  returns 0x200000EC (0000ms, 4661ms total)
T1FCC 361:639 JLINK_ReadReg(R2)  returns 0x20002BE0 (0000ms, 4661ms total)
T1FCC 361:639 JLINK_ReadReg(R3)  returns 0x00009AB0 (0000ms, 4661ms total)
T1FCC 361:639 JLINK_ReadReg(R4)  returns 0x20002BD8 (0000ms, 4661ms total)
T1FCC 361:639 JLINK_ReadReg(R5)  returns 0x200000DC (0000ms, 4661ms total)
T1FCC 361:639 JLINK_ReadReg(R6)  returns 0x00000000 (0000ms, 4661ms total)
T1FCC 361:639 JLINK_ReadReg(R7)  returns 0x00001000 (0000ms, 4661ms total)
T1FCC 361:639 JLINK_ReadReg(R8)  returns 0x40010800 (0000ms, 4661ms total)
T1FCC 361:639 JLINK_ReadReg(R9)  returns 0x00000000 (0000ms, 4661ms total)
T1FCC 361:639 JLINK_ReadReg(R10)  returns 0x00000000 (0000ms, 4661ms total)
T1FCC 361:639 JLINK_ReadReg(R11)  returns 0x00000000 (0000ms, 4661ms total)
T1FCC 361:639 JLINK_ReadReg(R12)  returns 0x0000001A (0000ms, 4661ms total)
T1FCC 361:639 JLINK_ReadReg(R13 (SP))  returns 0x20001390 (0000ms, 4661ms total)
T1FCC 361:639 JLINK_ReadReg(R14)  returns 0x080041C3 (0000ms, 4661ms total)
T1FCC 361:639 JLINK_ReadReg(R15 (PC))  returns 0x080009C2 (0001ms, 4662ms total)
T1FCC 361:640 JLINK_ReadReg(XPSR)  returns 0x81000000 (0000ms, 4662ms total)
T1FCC 361:640 JLINK_ReadReg(MSP)  returns 0x20003950 (0000ms, 4662ms total)
T1FCC 361:640 JLINK_ReadReg(PSP)  returns 0x20001390 (0000ms, 4662ms total)
T1FCC 361:640 JLINK_ReadReg(CFBP)  returns 0x02000000 (0000ms, 4662ms total)
T1FCC 362:112 JLINK_ReadMemEx(0x080009C2, 0x0002 Bytes, ..., Flags = 0x02000000) -- CPU_ReadMem(64 bytes @ 0x080009C0) -- Updating C cache (64 bytes @ 0x080009C0) -- Read from C cache (2 bytes @ 0x080009C2) - Data: 08 70  returns 0x02 (0001ms, 4663ms total)
T1FCC 362:113 JLINK_Step() -- Read from C cache (2 bytes @ 0x080009C2) -- CPU_ReadMem(4 bytes @ 0xE0001004) -- CPU_WriteMem(1 bytes @ 0x200000EC) -- Simulated  returns 0x00 (0003ms, 4666ms total)
T1FCC 362:116 JLINK_ReadReg(R15 (PC))  returns 0x080009C4 (0000ms, 4666ms total)
T1FCC 362:116 JLINK_ReadReg(XPSR)  returns 0x81000000 (0000ms, 4666ms total)
T1FCC 362:116 JLINK_SetBPEx(Addr = 0x08002870, Type = 0xFFFFFFF2)  returns 0x00000008 (0000ms, 4666ms total)
T1FCC 362:116 JLINK_SetBPEx(Addr = 0x080009C2, Type = 0xFFFFFFF2)  returns 0x00000009 (0000ms, 4666ms total)
T1FCC 362:116 JLINK_Go() -- CPU_WriteMem(4 bytes @ 0xE0002000) -- CPU_WriteMem(4 bytes @ 0xE0002000) -- CPU_ReadMem(4 bytes @ 0xE0001000) -- CPU_WriteMem(4 bytes @ 0xE0001004) (0008ms, 4674ms total)
T1FCC 362:225 JLINK_IsHalted()  returns TRUE (0004ms, 4678ms total)
T1FCC 362:229 JLINK_Halt()  returns 0x00 (0000ms, 4674ms total)
T1FCC 362:229 JLINK_IsHalted()  returns TRUE (0000ms, 4674ms total)
T1FCC 362:229 JLINK_IsHalted()  returns TRUE (0000ms, 4674ms total)
T1FCC 362:229 JLINK_IsHalted()  returns TRUE (0000ms, 4674ms total)
T1FCC 362:229 JLINK_ReadReg(R15 (PC))  returns 0x080009C2 (0000ms, 4674ms total)
T1FCC 362:229 JLINK_ReadReg(XPSR)  returns 0x81000000 (0000ms, 4674ms total)
T1FCC 362:229 JLINK_ClrBPEx(BPHandle = 0x00000008)  returns 0x00 (0000ms, 4674ms total)
T1FCC 362:229 JLINK_ClrBPEx(BPHandle = 0x00000009)  returns 0x00 (0000ms, 4674ms total)
T1FCC 362:229 JLINK_ReadMemU32(0xE000ED30, 0x0001 Items, ...) -- CPU_ReadMem(4 bytes @ 0xE000ED30) - Data: 02 00 00 00  returns 0x01 (0001ms, 4675ms total)
T1FCC 362:230 JLINK_ReadMemU32(0xE0001028, 0x0001 Items, ...) -- CPU_ReadMem(4 bytes @ 0xE0001028) - Data: 00 00 00 00  returns 0x01 (0001ms, 4676ms total)
T1FCC 362:231 JLINK_ReadMemU32(0xE0001038, 0x0001 Items, ...) -- CPU_ReadMem(4 bytes @ 0xE0001038) - Data: 00 02 00 00  returns 0x01 (0002ms, 4678ms total)
T1FCC 362:233 JLINK_ReadMemU32(0xE0001048, 0x0001 Items, ...) -- CPU_ReadMem(4 bytes @ 0xE0001048) - Data: 00 00 00 00  returns 0x01 (0001ms, 4679ms total)
T1FCC 362:234 JLINK_ReadMemU32(0xE0001058, 0x0001 Items, ...) -- CPU_ReadMem(4 bytes @ 0xE0001058) - Data: 00 00 00 00  returns 0x01 (0002ms, 4681ms total)
T1FCC 362:236 JLINK_ReadReg(R0)  returns 0x00000001 (0000ms, 4681ms total)
T1FCC 362:236 JLINK_ReadReg(R1)  returns 0x200000EC (0000ms, 4681ms total)
T1FCC 362:236 JLINK_ReadReg(R2)  returns 0x20002BE4 (0000ms, 4681ms total)
T1FCC 362:236 JLINK_ReadReg(R3)  returns 0x00009AB0 (0000ms, 4681ms total)
T1FCC 362:236 JLINK_ReadReg(R4)  returns 0x20002BD8 (0000ms, 4681ms total)
T1FCC 362:236 JLINK_ReadReg(R5)  returns 0x200000DC (0000ms, 4681ms total)
T1FCC 362:236 JLINK_ReadReg(R6)  returns 0x00000000 (0000ms, 4681ms total)
T1FCC 362:236 JLINK_ReadReg(R7)  returns 0x00001000 (0000ms, 4681ms total)
T1FCC 362:236 JLINK_ReadReg(R8)  returns 0x40010800 (0000ms, 4681ms total)
T1FCC 362:236 JLINK_ReadReg(R9)  returns 0x00000000 (0000ms, 4681ms total)
T1FCC 362:236 JLINK_ReadReg(R10)  returns 0x00000000 (0000ms, 4681ms total)
T1FCC 362:236 JLINK_ReadReg(R11)  returns 0x00000000 (0000ms, 4681ms total)
T1FCC 362:236 JLINK_ReadReg(R12)  returns 0x0000001A (0000ms, 4681ms total)
T1FCC 362:236 JLINK_ReadReg(R13 (SP))  returns 0x20001390 (0000ms, 4681ms total)
T1FCC 362:236 JLINK_ReadReg(R14)  returns 0x080041C3 (0001ms, 4682ms total)
T1FCC 362:237 JLINK_ReadReg(R15 (PC))  returns 0x080009C2 (0000ms, 4682ms total)
T1FCC 362:237 JLINK_ReadReg(XPSR)  returns 0x81000000 (0000ms, 4682ms total)
T1FCC 362:237 JLINK_ReadReg(MSP)  returns 0x20003950 (0000ms, 4682ms total)
T1FCC 362:237 JLINK_ReadReg(PSP)  returns 0x20001390 (0000ms, 4682ms total)
T1FCC 362:237 JLINK_ReadReg(CFBP)  returns 0x02000000 (0000ms, 4682ms total)
T1FCC 362:566 JLINK_ReadMemEx(0x080009C2, 0x0002 Bytes, ..., Flags = 0x02000000) -- CPU_ReadMem(64 bytes @ 0x080009C0) -- Updating C cache (64 bytes @ 0x080009C0) -- Read from C cache (2 bytes @ 0x080009C2) - Data: 08 70  returns 0x02 (0001ms, 4683ms total)
T1FCC 362:567 JLINK_Step() -- Read from C cache (2 bytes @ 0x080009C2) -- CPU_ReadMem(4 bytes @ 0xE0001004) -- CPU_WriteMem(1 bytes @ 0x200000EC) -- Simulated  returns 0x00 (0003ms, 4686ms total)
T1FCC 362:570 JLINK_ReadReg(R15 (PC))  returns 0x080009C4 (0000ms, 4686ms total)
T1FCC 362:570 JLINK_ReadReg(XPSR)  returns 0x81000000 (0000ms, 4686ms total)
T1FCC 362:570 JLINK_SetBPEx(Addr = 0x08002870, Type = 0xFFFFFFF2)  returns 0x0000000A (0000ms, 4686ms total)
T1FCC 362:570 JLINK_SetBPEx(Addr = 0x080009C2, Type = 0xFFFFFFF2)  returns 0x0000000B (0000ms, 4686ms total)
T1FCC 362:570 JLINK_Go() -- CPU_WriteMem(4 bytes @ 0xE0002000) -- CPU_WriteMem(4 bytes @ 0xE0002000) -- CPU_ReadMem(4 bytes @ 0xE0001000) -- CPU_WriteMem(4 bytes @ 0xE0001004) (0008ms, 4694ms total)
T1FCC 362:679 JLINK_IsHalted()  returns TRUE (0577ms, 5271ms total)
T1FCC 363:257 JLINK_Halt()  returns 0x00 (0000ms, 4694ms total)
T1FCC 363:257 JLINK_IsHalted()  returns TRUE (0000ms, 4694ms total)
T1FCC 363:257 JLINK_IsHalted()  returns TRUE (0000ms, 4694ms total)
T1FCC 363:257 JLINK_IsHalted()  returns TRUE (0000ms, 4694ms total)
T1FCC 363:257 JLINK_ReadReg(R15 (PC))  returns 0x080009C2 (0000ms, 4694ms total)
T1FCC 363:257 JLINK_ReadReg(XPSR)  returns 0x61000000 (0000ms, 4694ms total)
T1FCC 363:257 JLINK_ClrBPEx(BPHandle = 0x0000000A)  returns 0x00 (0000ms, 4694ms total)
T1FCC 363:257 JLINK_ClrBPEx(BPHandle = 0x0000000B)  returns 0x00 (0000ms, 4694ms total)
T1FCC 363:257 JLINK_ReadMemU32(0xE000ED30, 0x0001 Items, ...) -- CPU_ReadMem(4 bytes @ 0xE000ED30) - Data: 02 00 00 00  returns 0x01 (0001ms, 4695ms total)
T1FCC 363:258 JLINK_ReadMemU32(0xE0001028, 0x0001 Items, ...) -- CPU_ReadMem(4 bytes @ 0xE0001028) - Data: 00 00 00 00  returns 0x01 (0002ms, 4697ms total)
T1FCC 363:260 JLINK_ReadMemU32(0xE0001038, 0x0001 Items, ...) -- CPU_ReadMem(4 bytes @ 0xE0001038) - Data: 00 02 00 00  returns 0x01 (0001ms, 4698ms total)
T1FCC 363:261 JLINK_ReadMemU32(0xE0001048, 0x0001 Items, ...) -- CPU_ReadMem(4 bytes @ 0xE0001048) - Data: 00 00 00 00  returns 0x01 (0001ms, 4699ms total)
T1FCC 363:262 JLINK_ReadMemU32(0xE0001058, 0x0001 Items, ...) -- CPU_ReadMem(4 bytes @ 0xE0001058) - Data: 00 00 00 00  returns 0x01 (0002ms, 4701ms total)
T1FCC 363:264 JLINK_ReadReg(R0)  returns 0x00000002 (0000ms, 4701ms total)
T1FCC 363:264 JLINK_ReadReg(R1)  returns 0x200000EC (0000ms, 4701ms total)
T1FCC 363:264 JLINK_ReadReg(R2)  returns 0x20002BE8 (0000ms, 4701ms total)
T1FCC 363:264 JLINK_ReadReg(R3)  returns 0x0000A0B0 (0000ms, 4701ms total)
T1FCC 363:264 JLINK_ReadReg(R4)  returns 0x20002BD8 (0000ms, 4701ms total)
T1FCC 363:264 JLINK_ReadReg(R5)  returns 0x200000DC (0000ms, 4701ms total)
T1FCC 363:264 JLINK_ReadReg(R6)  returns 0x00000000 (0000ms, 4701ms total)
T1FCC 363:264 JLINK_ReadReg(R7)  returns 0x00001000 (0000ms, 4701ms total)
T1FCC 363:264 JLINK_ReadReg(R8)  returns 0x40010800 (0000ms, 4701ms total)
T1FCC 363:264 JLINK_ReadReg(R9)  returns 0x00000000 (0000ms, 4701ms total)
T1FCC 363:264 JLINK_ReadReg(R10)  returns 0x00000000 (0000ms, 4701ms total)
T1FCC 363:264 JLINK_ReadReg(R11)  returns 0x00000000 (0000ms, 4701ms total)
T1FCC 363:264 JLINK_ReadReg(R12)  returns 0x0000001A (0000ms, 4701ms total)
T1FCC 363:264 JLINK_ReadReg(R13 (SP))  returns 0x20001390 (0000ms, 4701ms total)
T1FCC 363:264 JLINK_ReadReg(R14)  returns 0x080041C3 (0000ms, 4701ms total)
T1FCC 363:264 JLINK_ReadReg(R15 (PC))  returns 0x080009C2 (0000ms, 4701ms total)
T1FCC 363:264 JLINK_ReadReg(XPSR)  returns 0x61000000 (0000ms, 4701ms total)
T1FCC 363:264 JLINK_ReadReg(MSP)  returns 0x20003950 (0000ms, 4701ms total)
T1FCC 363:264 JLINK_ReadReg(PSP)  returns 0x20001390 (0000ms, 4701ms total)
T1FCC 363:264 JLINK_ReadReg(CFBP)  returns 0x02000000 (0000ms, 4701ms total)
T1FCC 376:190 JLINK_ReadMemEx(0x080009C2, 0x0002 Bytes, ..., Flags = 0x02000000) -- CPU_ReadMem(64 bytes @ 0x080009C0) -- Updating C cache (64 bytes @ 0x080009C0) -- Read from C cache (2 bytes @ 0x080009C2) - Data: 08 70  returns 0x02 (0002ms, 4703ms total)
T1FCC 376:192 JLINK_SetBPEx(Addr = 0x08002870, Type = 0xFFFFFFF2)  returns 0x0000000C (0000ms, 4703ms total)
T1FCC 376:192 JLINK_SetBPEx(Addr = 0x08002CC6, Type = 0xFFFFFFF2)  returns 0x0000000D (0000ms, 4703ms total)
T1FCC 376:192 JLINK_Go() -- CPU_WriteMem(4 bytes @ 0xE0002000) -- CPU_WriteMem(4 bytes @ 0xE0002000) -- CPU_ReadMem(4 bytes @ 0xE0001000) -- CPU_WriteMem(4 bytes @ 0xE000200C) (0008ms, 4711ms total)
T1FCC 376:302 JLINK_IsHalted()  returns TRUE (0004ms, 4715ms total)
T1FCC 376:306 JLINK_Halt()  returns 0x00 (0000ms, 4711ms total)
T1FCC 376:306 JLINK_IsHalted()  returns TRUE (0000ms, 4711ms total)
T1FCC 376:306 JLINK_IsHalted()  returns TRUE (0000ms, 4711ms total)
T1FCC 376:306 JLINK_IsHalted()  returns TRUE (0000ms, 4711ms total)
T1FCC 376:306 JLINK_ReadReg(R15 (PC))  returns 0x08002CC6 (0000ms, 4711ms total)
T1FCC 376:306 JLINK_ReadReg(XPSR)  returns 0x61000000 (0000ms, 4711ms total)
T1FCC 376:306 JLINK_ClrBPEx(BPHandle = 0x0000000C)  returns 0x00 (0000ms, 4711ms total)
T1FCC 376:306 JLINK_ClrBPEx(BPHandle = 0x0000000D)  returns 0x00 (0000ms, 4711ms total)
T1FCC 376:306 JLINK_ReadMemU32(0xE000ED30, 0x0001 Items, ...) -- CPU_ReadMem(4 bytes @ 0xE000ED30) - Data: 02 00 00 00  returns 0x01 (0001ms, 4712ms total)
T1FCC 376:307 JLINK_ReadMemU32(0xE0001028, 0x0001 Items, ...) -- CPU_ReadMem(4 bytes @ 0xE0001028) - Data: 00 00 00 00  returns 0x01 (0001ms, 4713ms total)
T1FCC 376:308 JLINK_ReadMemU32(0xE0001038, 0x0001 Items, ...) -- CPU_ReadMem(4 bytes @ 0xE0001038) - Data: 00 02 00 00  returns 0x01 (0002ms, 4715ms total)
T1FCC 376:310 JLINK_ReadMemU32(0xE0001048, 0x0001 Items, ...) -- CPU_ReadMem(4 bytes @ 0xE0001048) - Data: 00 00 00 00  returns 0x01 (0001ms, 4716ms total)
T1FCC 376:311 JLINK_ReadMemU32(0xE0001058, 0x0001 Items, ...) -- CPU_ReadMem(4 bytes @ 0xE0001058) - Data: 00 00 00 00  returns 0x01 (0001ms, 4717ms total)
T1FCC 376:312 JLINK_ReadReg(R0)  returns 0x20002BFC (0000ms, 4717ms total)
T1FCC 376:312 JLINK_ReadReg(R1)  returns 0x20002BF8 (0000ms, 4717ms total)
T1FCC 376:312 JLINK_ReadReg(R2)  returns 0x20002BFA (0000ms, 4717ms total)
T1FCC 376:313 JLINK_ReadReg(R3)  returns 0x200003D4 (0000ms, 4718ms total)
T1FCC 376:313 JLINK_ReadReg(R4)  returns 0x20002BD8 (0000ms, 4718ms total)
T1FCC 376:313 JLINK_ReadReg(R5)  returns 0x20002BFC (0000ms, 4718ms total)
T1FCC 376:313 JLINK_ReadReg(R6)  returns 0x20002BF8 (0000ms, 4718ms total)
T1FCC 376:313 JLINK_ReadReg(R7)  returns 0x00000000 (0000ms, 4718ms total)
T1FCC 376:313 JLINK_ReadReg(R8)  returns 0x20002BFA (0000ms, 4718ms total)
T1FCC 376:313 JLINK_ReadReg(R9)  returns 0x00000000 (0000ms, 4718ms total)
T1FCC 376:313 JLINK_ReadReg(R10)  returns 0x00000000 (0000ms, 4718ms total)
T1FCC 376:313 JLINK_ReadReg(R11)  returns 0x00000000 (0000ms, 4718ms total)
T1FCC 376:313 JLINK_ReadReg(R12)  returns 0x00000000 (0000ms, 4718ms total)
T1FCC 376:313 JLINK_ReadReg(R13 (SP))  returns 0x200008C0 (0000ms, 4718ms total)
T1FCC 376:313 JLINK_ReadReg(R14)  returns 0x08005D5D (0000ms, 4718ms total)
T1FCC 376:313 JLINK_ReadReg(R15 (PC))  returns 0x08002CC6 (0000ms, 4718ms total)
T1FCC 376:313 JLINK_ReadReg(XPSR)  returns 0x61000000 (0000ms, 4718ms total)
T1FCC 376:313 JLINK_ReadReg(MSP)  returns 0x20003950 (0000ms, 4718ms total)
T1FCC 376:313 JLINK_ReadReg(PSP)  returns 0x200008C0 (0000ms, 4718ms total)
T1FCC 376:313 JLINK_ReadReg(CFBP)  returns 0x02000000 (0000ms, 4718ms total)
T0CE0 376:316 JLINK_ReadMemEx(0x00000000, 0x0004 Bytes, ..., Flags = 0x02000000) -- CPU_ReadMem(4 bytes @ 0x00000004) -- CPU_ReadMem(64 bytes @ 0x08000000) -- Updating C cache (64 bytes @ 0x08000000) -- Read from C cache (4 bytes @ 0x08000000) - Data: 70 39 00 20  returns 0x04 (0003ms, 4721ms total)
T1FCC 376:852 JLINK_ReadMemEx(0x08002CC6, 0x0002 Bytes, ..., Flags = 0x02000000) -- CPU_ReadMem(64 bytes @ 0x08002CC0) -- Updating C cache (64 bytes @ 0x08002CC0) -- Read from C cache (2 bytes @ 0x08002CC6) - Data: FF F7  returns 0x02 (0001ms, 4722ms total)
T1FCC 376:853 JLINK_Step() -- Read from C cache (2 bytes @ 0x08002CC6) -- CPU_ReadMem(4 bytes @ 0xE0001004) -- Read from C cache (2 bytes @ 0x08002CC8) -- Simulated  returns 0x00 (0003ms, 4725ms total)
T1FCC 376:856 JLINK_ReadReg(R15 (PC))  returns 0x08002C32 (0000ms, 4725ms total)
T1FCC 376:856 JLINK_ReadReg(XPSR)  returns 0x61000000 (0000ms, 4725ms total)
T1FCC 376:856 JLINK_SetBPEx(Addr = 0x08002870, Type = 0xFFFFFFF2)  returns 0x0000000E (0000ms, 4725ms total)
T1FCC 376:856 JLINK_SetBPEx(Addr = 0x08002CC6, Type = 0xFFFFFFF2)  returns 0x0000000F (0000ms, 4725ms total)
T1FCC 376:856 JLINK_Go() -- CPU_WriteMem(4 bytes @ 0xE0002000) -- CPU_WriteMem(4 bytes @ 0xE0002000) -- CPU_ReadMem(4 bytes @ 0xE0001000) -- CPU_WriteMem(4 bytes @ 0xE0001004) (0009ms, 4734ms total)
T1FCC 376:966 JLINK_IsHalted()  returns TRUE (0003ms, 4737ms total)
T1FCC 376:969 JLINK_Halt()  returns 0x00 (0000ms, 4734ms total)
T1FCC 376:969 JLINK_IsHalted()  returns TRUE (0000ms, 4734ms total)
T1FCC 376:969 JLINK_IsHalted()  returns TRUE (0000ms, 4734ms total)
T1FCC 376:969 JLINK_IsHalted()  returns TRUE (0001ms, 4735ms total)
T1FCC 376:970 JLINK_ReadReg(R15 (PC))  returns 0x08002CC6 (0000ms, 4734ms total)
T1FCC 376:970 JLINK_ReadReg(XPSR)  returns 0x61000000 (0000ms, 4734ms total)
T1FCC 376:970 JLINK_ClrBPEx(BPHandle = 0x0000000E)  returns 0x00 (0000ms, 4734ms total)
T1FCC 376:970 JLINK_ClrBPEx(BPHandle = 0x0000000F)  returns 0x00 (0000ms, 4734ms total)
T1FCC 376:970 JLINK_ReadMemU32(0xE000ED30, 0x0001 Items, ...) -- CPU_ReadMem(4 bytes @ 0xE000ED30) - Data: 02 00 00 00  returns 0x01 (0001ms, 4735ms total)
T1FCC 376:971 JLINK_ReadMemU32(0xE0001028, 0x0001 Items, ...) -- CPU_ReadMem(4 bytes @ 0xE0001028) - Data: 00 00 00 00  returns 0x01 (0001ms, 4736ms total)
T1FCC 376:972 JLINK_ReadMemU32(0xE0001038, 0x0001 Items, ...) -- CPU_ReadMem(4 bytes @ 0xE0001038) - Data: 00 02 00 00  returns 0x01 (0002ms, 4738ms total)
T1FCC 376:974 JLINK_ReadMemU32(0xE0001048, 0x0001 Items, ...) -- CPU_ReadMem(4 bytes @ 0xE0001048) - Data: 00 00 00 00  returns 0x01 (0001ms, 4739ms total)
T1FCC 376:975 JLINK_ReadMemU32(0xE0001058, 0x0001 Items, ...) -- CPU_ReadMem(4 bytes @ 0xE0001058) - Data: 00 00 00 00  returns 0x01 (0001ms, 4740ms total)
T1FCC 376:976 JLINK_ReadReg(R0)  returns 0x20002BFC (0000ms, 4740ms total)
T1FCC 376:976 JLINK_ReadReg(R1)  returns 0x20002BF8 (0001ms, 4741ms total)
T1FCC 376:977 JLINK_ReadReg(R2)  returns 0x20002BFA (0000ms, 4741ms total)
T1FCC 376:977 JLINK_ReadReg(R3)  returns 0x2000066C (0000ms, 4741ms total)
T1FCC 376:977 JLINK_ReadReg(R4)  returns 0x20002BD8 (0000ms, 4741ms total)
T1FCC 376:977 JLINK_ReadReg(R5)  returns 0x20002BFC (0000ms, 4741ms total)
T1FCC 376:977 JLINK_ReadReg(R6)  returns 0x20002BF8 (0000ms, 4741ms total)
T1FCC 376:977 JLINK_ReadReg(R7)  returns 0x00000000 (0000ms, 4741ms total)
T1FCC 376:977 JLINK_ReadReg(R8)  returns 0x20002BFA (0000ms, 4741ms total)
T1FCC 376:977 JLINK_ReadReg(R9)  returns 0x00000000 (0000ms, 4741ms total)
T1FCC 376:977 JLINK_ReadReg(R10)  returns 0x00000000 (0000ms, 4741ms total)
T1FCC 376:977 JLINK_ReadReg(R11)  returns 0x00000000 (0000ms, 4741ms total)
T1FCC 376:977 JLINK_ReadReg(R12)  returns 0x00000000 (0000ms, 4741ms total)
T1FCC 376:977 JLINK_ReadReg(R13 (SP))  returns 0x200008C0 (0000ms, 4741ms total)
T1FCC 376:977 JLINK_ReadReg(R14)  returns 0x08005D5D (0000ms, 4741ms total)
T1FCC 376:977 JLINK_ReadReg(R15 (PC))  returns 0x08002CC6 (0000ms, 4741ms total)
T1FCC 376:977 JLINK_ReadReg(XPSR)  returns 0x61000000 (0000ms, 4741ms total)
T1FCC 376:977 JLINK_ReadReg(MSP)  returns 0x20003950 (0000ms, 4741ms total)
T1FCC 376:977 JLINK_ReadReg(PSP)  returns 0x200008C0 (0000ms, 4741ms total)
T1FCC 376:977 JLINK_ReadReg(CFBP)  returns 0x02000000 (0000ms, 4741ms total)
T0CE0 376:977 JLINK_ReadMemEx(0x00000000, 0x0004 Bytes, ..., Flags = 0x02000000) -- CPU_ReadMem(4 bytes @ 0x00000004) -- CPU_ReadMem(64 bytes @ 0x08000000) -- Updating C cache (64 bytes @ 0x08000000) -- Read from C cache (4 bytes @ 0x08000000) - Data: 70 39 00 20  returns 0x04 (0003ms, 4744ms total)
T1FCC 377:422 JLINK_ReadMemEx(0x08002CC6, 0x0002 Bytes, ..., Flags = 0x02000000) -- CPU_ReadMem(64 bytes @ 0x08002CC0) -- Updating C cache (64 bytes @ 0x08002CC0) -- Read from C cache (2 bytes @ 0x08002CC6) - Data: FF F7  returns 0x02 (0000ms, 4744ms total)
T1FCC 377:422 JLINK_Step() -- Read from C cache (2 bytes @ 0x08002CC6) -- CPU_ReadMem(4 bytes @ 0xE0001004) -- Read from C cache (2 bytes @ 0x08002CC8) -- Simulated  returns 0x00 (0002ms, 4746ms total)
T1FCC 377:424 JLINK_ReadReg(R15 (PC))  returns 0x08002C32 (0000ms, 4746ms total)
T1FCC 377:424 JLINK_ReadReg(XPSR)  returns 0x61000000 (0000ms, 4746ms total)
T1FCC 377:424 JLINK_SetBPEx(Addr = 0x08002870, Type = 0xFFFFFFF2)  returns 0x00000010 (0000ms, 4746ms total)
T1FCC 377:424 JLINK_SetBPEx(Addr = 0x08002CC6, Type = 0xFFFFFFF2)  returns 0x00000011 (0000ms, 4746ms total)
T1FCC 377:424 JLINK_Go() -- CPU_WriteMem(4 bytes @ 0xE0002000) -- CPU_WriteMem(4 bytes @ 0xE0002000) -- CPU_ReadMem(4 bytes @ 0xE0001000) -- CPU_WriteMem(4 bytes @ 0xE0001004) (0009ms, 4755ms total)
T1FCC 377:534 JLINK_IsHalted()  returns TRUE (0004ms, 4760ms total)
T1FCC 377:538 JLINK_Halt()  returns 0x00 (0000ms, 4756ms total)
T1FCC 377:538 JLINK_IsHalted()  returns TRUE (0000ms, 4756ms total)
T1FCC 377:538 JLINK_IsHalted()  returns TRUE (0000ms, 4756ms total)
T1FCC 377:538 JLINK_IsHalted()  returns TRUE (0000ms, 4756ms total)
T1FCC 377:538 JLINK_ReadReg(R15 (PC))  returns 0x08002CC6 (0000ms, 4756ms total)
